T685C 000:005.078   SEGGER J-Link V9.26 Log File
T685C 000:005.237   DLL Compiled: Mar 11 2026 16:57:45
T685C 000:005.244   Logging started @ 2026-05-14 10:33
T685C 000:005.249   Process: D:\keil5\keil\UV4\UV4.exe
T685C 000:005.260 - 5.256ms 
T685C 000:005.276 JLINK_SetWarnOutHandler(...)
T685C 000:005.285 - 0.012ms 
T685C 000:005.293 JLINK_OpenEx(...)
T685C 000:008.147   Firmware: J-Link V9 compiled May  7 2021 16:26:12
T685C 000:008.716   Firmware: J-Link V9 compiled May  7 2021 16:26:12
T685C 000:008.860   Decompressing FW timestamp took 115 us
T685C 000:014.629   Hardware: V9.70
T685C 000:014.645   S/N: 602717758
T685C 000:014.653   OEM: SEGGER
T685C 000:014.661   Feature(s): RDI, FlashBP, FlashDL, JFlash, GDB
T685C 000:015.092   Bootloader: (FW returned invalid version)
T685C 000:015.790   TELNET listener socket opened on port 19021
T685C 000:015.956   WEBSRV WEBSRV_Init(): Starting webserver thread(s)
T685C 000:016.154   WEBSRV Webserver running on local port 19080
T685C 000:016.318   Looking for J-Link GUI Server exe at: D:\keil5\keil\ARM\Segger\JLinkGUIServer.exe
T685C 000:016.418   Looking for J-Link GUI Server exe at: D:\ĐÂ˝¨ÎÄĽţĽĐ (6)\JLink_V926\JLinkGUIServer.exe
T685C 000:016.453   Forking J-Link GUI Server: D:\ĐÂ˝¨ÎÄĽţĽĐ (6)\JLink_V926\JLinkGUIServer.exe
T685C 000:050.495   J-Link GUI Server info: "J-Link GUI server V9.26 "
T685C 000:065.789 - 60.490ms returns "O.K."
T685C 000:065.840 JLINK_GetEmuCaps()
T685C 000:065.861 - 0.019ms returns 0xB9FF7BBF
T685C 000:065.881 JLINK_TIF_GetAvailable(...)
T685C 000:066.055 - 0.185ms 
T685C 000:066.065 JLINK_SetErrorOutHandler(...)
T685C 000:066.071 - 0.006ms 
T685C 000:066.093 JLINK_ExecCommand("ProjectFile = "C:\Users\Dylan Qiu\Desktop\design\software\QSHOT\QShot_V1\MDK-ARM\JLinkSettings.ini"", ...). 
T685C 000:078.493   Ref file found at: D:\keil5\keil\ARM\Segger\JLinkDevices.ref
T685C 000:078.578   REF file references invalid XML file: D:\ĐÂ˝¨ÎÄĽţĽĐ (6)\JLink_V926\JLinkDevices.xml
T685C 000:080.217 - 14.125ms returns 0x00
T685C 000:084.515 JLINK_ExecCommand("Device = STM32F405RGTx", ...). 
T685C 000:090.321   Device "STM32F405RG" selected.
T685C 000:090.861 - 6.345ms returns 0x00
T685C 000:090.884   ERROR: Unknown command
T685C 000:090.895 JLINK_GetHardwareVersion()
T685C 000:090.904 - 0.006ms returns 97000
T685C 000:090.911 JLINK_GetDLLVersion()
T685C 000:090.918 - 0.006ms returns 92600
T685C 000:090.924 JLINK_GetOEMString(...)
T685C 000:090.932 JLINK_GetFirmwareString(...)
T685C 000:090.938 - 0.006ms 
T685C 000:101.178 JLINK_GetDLLVersion()
T685C 000:101.198 - 0.020ms returns 92600
T685C 000:101.206 JLINK_GetCompileDateTime()
T685C 000:101.212 - 0.006ms 
T685C 000:104.294 JLINK_GetFirmwareString(...)
T685C 000:104.308 - 0.014ms 
T685C 000:107.883 JLINK_GetHardwareVersion()
T685C 000:107.900 - 0.016ms returns 97000
T685C 000:111.626 JLINK_GetSN()
T685C 000:111.644 - 0.018ms returns 602717758
T685C 000:114.795 JLINK_GetOEMString(...)
T685C 000:120.847 JLINK_TIF_Select(JLINKARM_TIF_SWD)
T685C 000:121.285 - 0.438ms returns 0x00
T685C 000:121.304 JLINK_HasError()
T685C 000:121.320 JLINK_SetSpeed(10000)
T685C 000:121.403 - 0.085ms 
T685C 000:121.417 JLINK_GetId()
T685C 000:126.554   InitTarget() start
T685C 000:126.574    J-Link Script File: Executing InitTarget()
T685C 000:129.785   SWD selected. Executing JTAG -> SWD switching sequence.
T685C 000:134.361   DAP initialized successfully.
T685C 000:141.457   InitTarget() end - Took 11.3ms
T685C 000:145.687   Found SW-DP with ID 0x2BA01477
T685C 000:150.591   DPIDR: 0x2BA01477
T685C 000:155.164   CoreSight SoC-400 or earlier
T685C 000:158.479   Scanning AP map to find all available APs
T685C 000:162.215   AP[1]: Stopped AP scan as end of AP map has been reached
T685C 000:165.284   AP[0]: AHB-AP (IDR: 0x24770011, ADDR: 0x00000000)
T685C 000:168.533   Iterating through AP map to find AHB-AP to use
T685C 000:172.542   AP[0]: Core found
T685C 000:175.903   AP[0]: AHB-AP ROM base: 0xE00FF000
T685C 000:180.285   CPUID register: 0x410FC241. Implementer code: 0x41 (ARM)
T685C 000:183.484   Found Cortex-M4 r0p1, Little endian.
T685C 000:183.821   -- Max. mem block: 0x00010C20
T685C 000:184.151   CPU_ReadMem(4 bytes @ 0xE000EDF0)
T685C 000:184.380   CPU_ReadMem(4 bytes @ 0xE0002000)
T685C 000:189.285   FPUnit: 6 code (BP) slots and 2 literal slots
T685C 000:189.309   CPU_ReadMem(4 bytes @ 0xE000EDFC)
T685C 000:189.544   CPU_WriteMem(4 bytes @ 0xE000EDFC)
T685C 000:189.802   CPU_ReadMem(4 bytes @ 0xE0001000)
T685C 000:190.040   CPU_WriteMem(4 bytes @ 0xE0001000)
T685C 000:190.273   CPU_ReadMem(4 bytes @ 0xE000ED88)
T685C 000:190.490   CPU_WriteMem(4 bytes @ 0xE000ED88)
T685C 000:190.717   CPU_ReadMem(4 bytes @ 0xE000ED88)
T685C 000:190.942   CPU_WriteMem(4 bytes @ 0xE000ED88)
T685C 000:194.981   CoreSight components:
T685C 000:198.206   ROMTbl[0] @ E00FF000
T685C 000:198.225   CPU_ReadMem(64 bytes @ 0xE00FF000)
T685C 000:198.725   CPU_ReadMem(32 bytes @ 0xE000EFE0)
T685C 000:203.425   [0][0]: E000E000 CID B105E00D PID 000BB00C SCS-M7
T685C 000:203.447   CPU_ReadMem(32 bytes @ 0xE0001FE0)
T685C 000:206.986   [0][1]: E0001000 CID B105E00D PID 003BB002 DWT
T685C 000:207.006   CPU_ReadMem(32 bytes @ 0xE0002FE0)
T685C 000:211.426   [0][2]: E0002000 CID B105E00D PID 002BB003 FPB
T685C 000:211.448   CPU_ReadMem(32 bytes @ 0xE0000FE0)
T685C 000:215.245   [0][3]: E0000000 CID B105E00D PID 003BB001 ITM
T685C 000:215.266   CPU_ReadMem(32 bytes @ 0xE0040FE0)
T685C 000:219.121   [0][4]: E0040000 CID B105900D PID 000BB9A1 TPIU
T685C 000:219.140   CPU_ReadMem(32 bytes @ 0xE0041FE0)
T685C 000:222.902   [0][5]: E0041000 CID B105900D PID 000BB925 ETM
T685C 000:223.124 - 101.707ms returns 0x2BA01477
T685C 000:223.148 JLINK_GetDLLVersion()
T685C 000:223.155 - 0.007ms returns 92600
T685C 000:223.164 JLINK_CORE_GetFound()
T685C 000:223.171 - 0.006ms returns 0xE0000FF
T685C 000:223.179 JLINK_GetDebugInfo(0x100 = JLINKARM_ROM_TABLE_ADDR_INDEX)
T685C 000:223.186   Value=0xE00FF000
T685C 000:223.194 - 0.015ms returns 0
T685C 000:226.494 JLINK_GetDebugInfo(0x100 = JLINKARM_ROM_TABLE_ADDR_INDEX)
T685C 000:226.508   Value=0xE00FF000
T685C 000:226.517 - 0.023ms returns 0
T685C 000:226.524 JLINK_GetDebugInfo(0x101 = JLINKARM_DEBUG_INFO_ETM_ADDR_INDEX)
T685C 000:226.530   Value=0xE0041000
T685C 000:226.539 - 0.015ms returns 0
T685C 000:226.551 JLINK_ReadMemEx(0xE0041FD0, 0x20 Bytes, Flags = 0x02000004)
T685C 000:226.569   CPU_ReadMem(32 bytes @ 0xE0041FD0)
T685C 000:226.933   Data:  04 00 00 00 00 00 00 00 00 00 00 00 00 00 00 00 ...
T685C 000:226.952 - 0.401ms returns 32 (0x20)
T685C 000:226.964 JLINK_GetDebugInfo(0x102 = JLINKARM_DEBUG_INFO_MTB_ADDR_INDEX)
T685C 000:226.971   Value=0x00000000
T685C 000:226.981 - 0.018ms returns 0
T685C 000:226.990 JLINK_GetDebugInfo(0x103 = JLINKARM_DEBUG_INFO_TPIU_ADDR_INDEX)
T685C 000:226.997   Value=0xE0040000
T685C 000:227.007 - 0.017ms returns 0
T685C 000:227.016 JLINK_GetDebugInfo(0x104 = JLINKARM_DEBUG_INFO_ITM_ADDR_INDEX)
T685C 000:227.023   Value=0xE0000000
T685C 000:227.033 - 0.017ms returns 0
T685C 000:227.041 JLINK_GetDebugInfo(0x105 = JLINKARM_DEBUG_INFO_DWT_ADDR_INDEX)
T685C 000:227.048   Value=0xE0001000
T685C 000:227.058 - 0.017ms returns 0
T685C 000:227.066 JLINK_GetDebugInfo(0x106 = JLINKARM_DEBUG_INFO_FPB_ADDR_INDEX)
T685C 000:227.073   Value=0xE0002000
T685C 000:227.083 - 0.017ms returns 0
T685C 000:227.091 JLINK_GetDebugInfo(0x107 = JLINKARM_DEBUG_INFO_NVIC_ADDR_INDEX)
T685C 000:227.098   Value=0xE000E000
T685C 000:227.108 - 0.017ms returns 0
T685C 000:227.117 JLINK_GetDebugInfo(0x10C = JLINKARM_DEBUG_INFO_DBG_ADDR_INDEX)
T685C 000:227.123   Value=0xE000EDF0
T685C 000:227.133 - 0.016ms returns 0
T685C 000:227.142 JLINK_GetDebugInfo(0x01 = Unknown)
T685C 000:227.148   Value=0x00000001
T685C 000:227.158 - 0.017ms returns 0
T685C 000:227.167 JLINK_ReadMemU32(0xE000ED00, 0x1 Items)
T685C 000:227.177   CPU_ReadMem(4 bytes @ 0xE000ED00)
T685C 000:227.410   Data:  41 C2 0F 41
T685C 000:227.425   Debug reg: CPUID
T685C 000:227.434 - 0.267ms returns 1 (0x1)
T685C 000:227.443 JLINK_GetDebugInfo(0x10F = JLINKARM_DEBUG_INFO_HAS_CORTEX_M_SECURITY_EXT_INDEX)
T685C 000:227.455   Value=0x00000000
T685C 000:227.466 - 0.022ms returns 0
T685C 000:227.473 JLINK_HasError()
T685C 000:227.481 JLINK_SetResetType(JLINKARM_CM3_RESET_TYPE_NORMAL)
T685C 000:227.487 - 0.006ms returns JLINKARM_CM3_RESET_TYPE_NORMAL
T685C 000:227.494 JLINK_Reset()
T685C 000:227.506   JLINK_GetResetTypeDesc
T685C 000:227.513   - 0.006ms 
T685C 000:231.502   Reset type: NORMAL (https://kb.segger.com/J-Link_Reset_Strategies)
T685C 000:231.519   CPU is running
T685C 000:231.530   CPU_WriteMem(4 bytes @ 0xE000EDF0)
T685C 000:231.797   CPU is running
T685C 000:231.813   CPU_WriteMem(4 bytes @ 0xE000EDFC)
T685C 000:236.887   Reset: Halt core after reset via DEMCR.VC_CORERESET.
T685C 000:240.726   Reset: Reset device via AIRCR.SYSRESETREQ.
T685C 000:240.746   CPU is running
T685C 000:240.758   CPU_WriteMem(4 bytes @ 0xE000ED0C)
T685C 000:293.375   CPU_ReadMem(4 bytes @ 0xE000EDF0)
T685C 000:293.639   CPU_ReadMem(4 bytes @ 0xE000EDF0)
T685C 000:295.730   CPU_WriteMem(4 bytes @ 0xE000EDFC)
T685C 000:301.776   CPU_ReadMem(4 bytes @ 0xE000EDF0)
T685C 000:303.824   CPU_WriteMem(4 bytes @ 0xE0002000)
T685C 000:304.075   CPU_ReadMem(4 bytes @ 0xE000EDFC)
T685C 000:304.304   CPU_ReadMem(4 bytes @ 0xE0001000)
T685C 000:304.533 - 77.038ms 
T685C 000:304.596 JLINK_Halt()
T685C 000:304.606 - 0.009ms returns 0x00
T685C 000:304.617 JLINK_ReadMemU32(0xE000EDF0, 0x1 Items)
T685C 000:304.630   CPU_ReadMem(4 bytes @ 0xE000EDF0)
T685C 000:304.851   Data:  03 00 03 00
T685C 000:304.868   Debug reg: DHCSR
T685C 000:304.877 - 0.260ms returns 1 (0x1)
T685C 000:304.891 JLINK_WriteU32(0xE000EDF0, 0xA05F0003)
T685C 000:304.898   Debug reg: DHCSR
T685C 000:305.411   CPU_WriteMem(4 bytes @ 0xE000EDF0)
T685C 000:305.650 - 0.759ms returns 0 (0x00000000)
T685C 000:305.663 JLINK_WriteU32(0xE000EDFC, 0x01000000)
T685C 000:305.670   Debug reg: DEMCR
T685C 000:305.682   CPU_WriteMem(4 bytes @ 0xE000EDFC)
T685C 000:305.919 - 0.256ms returns 0 (0x00000000)
T685C 000:322.521 JLINK_GetHWStatus(...)
T685C 000:322.688 - 0.166ms returns 0
T685C 000:332.950 JLINK_GetNumBPUnits(Type = 0xFFFFFF00)
T685C 000:332.973 - 0.022ms returns 0x06
T685C 000:332.981 JLINK_GetNumBPUnits(Type = 0xF0)
T685C 000:332.988 - 0.006ms returns 0x2000
T685C 000:332.994 JLINK_GetNumWPUnits()
T685C 000:333.000 - 0.005ms returns 4
T685C 000:344.703 JLINK_GetSpeed()
T685C 000:344.727 - 0.023ms returns 6000
T685C 000:351.136 JLINK_ReadMemU32(0xE000E004, 0x1 Items)
T685C 000:351.162   CPU_ReadMem(4 bytes @ 0xE000E004)
T685C 000:351.412   Data:  02 00 00 00
T685C 000:351.430 - 0.293ms returns 1 (0x1)
T685C 000:351.439 JLINK_ReadMemU32(0xE000E004, 0x1 Items)
T685C 000:351.448   CPU_ReadMem(4 bytes @ 0xE000E004)
T685C 000:351.695   Data:  02 00 00 00
T685C 000:351.709 - 0.269ms returns 1 (0x1)
T685C 000:351.718 JLINK_WriteMemEx(0xE0001000, 0x0000001C Bytes, Flags = 0x02000004)
T685C 000:351.724   Data:  01 00 00 00 00 00 00 00 00 00 00 00 00 00 00 00 ...
T685C 000:351.745   CPU_WriteMem(28 bytes @ 0xE0001000)
T685C 000:352.085 - 0.367ms returns 0x1C
T685C 000:352.099 JLINK_Halt()
T685C 000:352.105 - 0.006ms returns 0x00
T685C 000:352.112 JLINK_IsHalted()
T685C 000:352.119 - 0.006ms returns TRUE
T685C 000:355.506 JLINK_WriteMem(0x20000000, 0x180 Bytes, ...)
T685C 000:355.524   Data:  00 BE 0A E0 0D 78 2D 06 68 40 08 24 40 00 00 D3 ...
T685C 000:355.999   CPU_WriteMem(384 bytes @ 0x20000000)
T685C 000:357.536 - 2.030ms returns 0x180
T685C 000:357.590 JLINK_HasError()
T685C 000:357.603 JLINK_WriteReg(R0, 0x08000000)
T685C 000:357.612 - 0.009ms returns 0
T685C 000:357.620 JLINK_WriteReg(R1, 0x007A1200)
T685C 000:357.627 - 0.006ms returns 0
T685C 000:357.635 JLINK_WriteReg(R2, 0x00000001)
T685C 000:357.642 - 0.006ms returns 0
T685C 000:357.650 JLINK_WriteReg(R3, 0x00000000)
T685C 000:357.657 - 0.006ms returns 0
T685C 000:357.664 JLINK_WriteReg(R4, 0x00000000)
T685C 000:357.671 - 0.006ms returns 0
T685C 000:357.679 JLINK_WriteReg(R5, 0x00000000)
T685C 000:357.686 - 0.006ms returns 0
T685C 000:357.705 JLINK_WriteReg(R6, 0x00000000)
T685C 000:357.711 - 0.007ms returns 0
T685C 000:357.719 JLINK_WriteReg(R7, 0x00000000)
T685C 000:357.726 - 0.007ms returns 0
T685C 000:357.734 JLINK_WriteReg(R8, 0x00000000)
T685C 000:357.741 - 0.006ms returns 0
T685C 000:357.749 JLINK_WriteReg(R9, 0x2000017C)
T685C 000:357.756 - 0.006ms returns 0
T685C 000:357.764 JLINK_WriteReg(R10, 0x00000000)
T685C 000:357.770 - 0.006ms returns 0
T685C 000:357.778 JLINK_WriteReg(R11, 0x00000000)
T685C 000:357.785 - 0.006ms returns 0
T685C 000:357.793 JLINK_WriteReg(R12, 0x00000000)
T685C 000:357.799 - 0.006ms returns 0
T685C 000:357.808 JLINK_WriteReg(R13 (SP), 0x20001000)
T685C 000:357.815 - 0.007ms returns 0
T685C 000:357.823 JLINK_WriteReg(R14, 0x20000001)
T685C 000:357.830 - 0.006ms returns 0
T685C 000:357.843 JLINK_WriteReg(R15 (PC), 0x20000054)
T685C 000:357.850 - 0.012ms returns 0
T685C 000:357.858 JLINK_WriteReg(XPSR, 0x01000000)
T685C 000:357.865 - 0.007ms returns 0
T685C 000:357.873 JLINK_WriteReg(MSP, 0x20001000)
T685C 000:357.879 - 0.006ms returns 0
T685C 000:357.887 JLINK_WriteReg(PSP, 0x20001000)
T685C 000:357.894 - 0.006ms returns 0
T685C 000:357.902 JLINK_WriteReg(CFBP, 0x00000000)
T685C 000:357.909 - 0.006ms returns 0
T685C 000:357.917 JLINK_SetBPEx(Addr = 0x20000000, Type = 0xFFFFFFF2)
T685C 000:357.929   CPU_ReadMem(2 bytes @ 0x20000000)
T685C 000:358.168 - 0.250ms returns 0x00000001
T685C 000:358.186 JLINK_Go()
T685C 000:358.195   CPU_WriteMem(2 bytes @ 0x20000000)
T685C 000:358.432   CPU_ReadMem(4 bytes @ 0xE0001000)
T685C 000:358.659   CPU_WriteMem(4 bytes @ 0xE0002008)
T685C 000:358.673   CPU_WriteMem(4 bytes @ 0xE000200C)
T685C 000:358.683   CPU_WriteMem(4 bytes @ 0xE0002010)
T685C 000:358.694   CPU_WriteMem(4 bytes @ 0xE0002014)
T685C 000:358.704   CPU_WriteMem(4 bytes @ 0xE0002018)
T685C 000:358.715   CPU_WriteMem(4 bytes @ 0xE000201C)
T685C 000:359.657   CPU_WriteMem(4 bytes @ 0xE0001004)
T685C 000:365.622   Memory map 'after startup completion point' is active
T685C 000:365.649 - 7.463ms 
T685C 000:365.661 JLINK_IsHalted()
T685C 000:367.471   CPU_ReadMem(2 bytes @ 0x20000000)
T685C 000:367.702 - 2.040ms returns TRUE
T685C 000:367.722 JLINK_ReadReg(R15 (PC))
T685C 000:367.732 - 0.009ms returns 0x20000000
T685C 000:367.748 JLINK_ClrBPEx(BPHandle = 0x00000001)
T685C 000:367.756 - 0.008ms returns 0x00
T685C 000:367.765 JLINK_ReadReg(R0)
T685C 000:367.773 - 0.007ms returns 0x00000000
T685C 000:368.107 JLINK_HasError()
T685C 000:368.126 JLINK_WriteReg(R0, 0x08000000)
T685C 000:368.135 - 0.009ms returns 0
T685C 000:368.144 JLINK_WriteReg(R1, 0x00004000)
T685C 000:368.152 - 0.007ms returns 0
T685C 000:368.160 JLINK_WriteReg(R2, 0x000000FF)
T685C 000:368.168 - 0.007ms returns 0
T685C 000:368.177 JLINK_WriteReg(R3, 0x00000000)
T685C 000:368.184 - 0.007ms returns 0
T685C 000:368.193 JLINK_WriteReg(R4, 0x00000000)
T685C 000:368.200 - 0.007ms returns 0
T685C 000:368.208 JLINK_WriteReg(R5, 0x00000000)
T685C 000:368.216 - 0.007ms returns 0
T685C 000:368.224 JLINK_WriteReg(R6, 0x00000000)
T685C 000:368.231 - 0.007ms returns 0
T685C 000:368.240 JLINK_WriteReg(R7, 0x00000000)
T685C 000:368.247 - 0.007ms returns 0
T685C 000:368.256 JLINK_WriteReg(R8, 0x00000000)
T685C 000:368.263 - 0.007ms returns 0
T685C 000:368.272 JLINK_WriteReg(R9, 0x2000017C)
T685C 000:368.279 - 0.007ms returns 0
T685C 000:368.288 JLINK_WriteReg(R10, 0x00000000)
T685C 000:368.295 - 0.007ms returns 0
T685C 000:368.304 JLINK_WriteReg(R11, 0x00000000)
T685C 000:368.311 - 0.007ms returns 0
T685C 000:368.319 JLINK_WriteReg(R12, 0x00000000)
T685C 000:368.327 - 0.007ms returns 0
T685C 000:368.336 JLINK_WriteReg(R13 (SP), 0x20001000)
T685C 000:368.343 - 0.007ms returns 0
T685C 000:368.352 JLINK_WriteReg(R14, 0x20000001)
T685C 000:368.359 - 0.007ms returns 0
T685C 000:368.368 JLINK_WriteReg(R15 (PC), 0x20000020)
T685C 000:368.376 - 0.007ms returns 0
T685C 000:368.384 JLINK_WriteReg(XPSR, 0x01000000)
T685C 000:368.392 - 0.007ms returns 0
T685C 000:368.400 JLINK_WriteReg(MSP, 0x20001000)
T685C 000:368.480 - 0.079ms returns 0
T685C 000:368.490 JLINK_WriteReg(PSP, 0x20001000)
T685C 000:368.497 - 0.007ms returns 0
T685C 000:368.506 JLINK_WriteReg(CFBP, 0x00000000)
T685C 000:368.514 - 0.007ms returns 0
T685C 000:368.523 JLINK_SetBPEx(Addr = 0x20000000, Type = 0xFFFFFFF2)
T685C 000:368.535 - 0.012ms returns 0x00000002
T685C 000:368.544 JLINK_Go()
T685C 000:368.560   CPU_ReadMem(4 bytes @ 0xE0001000)
T685C 000:370.512 - 1.967ms 
T685C 000:370.526 JLINK_IsHalted()
T685C 000:372.343   CPU_ReadMem(2 bytes @ 0x20000000)
T685C 000:372.633 - 2.107ms returns TRUE
T685C 000:372.645 JLINK_ReadReg(R15 (PC))
T685C 000:372.652 - 0.007ms returns 0x20000000
T685C 000:372.662 JLINK_ClrBPEx(BPHandle = 0x00000002)
T685C 000:372.668 - 0.006ms returns 0x00
T685C 000:372.677 JLINK_ReadReg(R0)
T685C 000:372.688 - 0.010ms returns 0x00000001
T685C 000:372.695 JLINK_HasError()
T685C 000:372.703 JLINK_WriteReg(R0, 0x08000000)
T685C 000:372.709 - 0.006ms returns 0
T685C 000:372.716 JLINK_WriteReg(R1, 0x00004000)
T685C 000:372.722 - 0.005ms returns 0
T685C 000:372.729 JLINK_WriteReg(R2, 0x000000FF)
T685C 000:372.735 - 0.005ms returns 0
T685C 000:372.741 JLINK_WriteReg(R3, 0x00000000)
T685C 000:372.747 - 0.005ms returns 0
T685C 000:372.754 JLINK_WriteReg(R4, 0x00000000)
T685C 000:372.760 - 0.006ms returns 0
T685C 000:372.766 JLINK_WriteReg(R5, 0x00000000)
T685C 000:372.772 - 0.005ms returns 0
T685C 000:372.779 JLINK_WriteReg(R6, 0x00000000)
T685C 000:372.785 - 0.006ms returns 0
T685C 000:372.792 JLINK_WriteReg(R7, 0x00000000)
T685C 000:372.798 - 0.005ms returns 0
T685C 000:372.804 JLINK_WriteReg(R8, 0x00000000)
T685C 000:372.810 - 0.005ms returns 0
T685C 000:372.817 JLINK_WriteReg(R9, 0x2000017C)
T685C 000:372.823 - 0.005ms returns 0
T685C 000:372.829 JLINK_WriteReg(R10, 0x00000000)
T685C 000:372.835 - 0.006ms returns 0
T685C 000:372.842 JLINK_WriteReg(R11, 0x00000000)
T685C 000:372.848 - 0.005ms returns 0
T685C 000:372.854 JLINK_WriteReg(R12, 0x00000000)
T685C 000:372.860 - 0.005ms returns 0
T685C 000:372.867 JLINK_WriteReg(R13 (SP), 0x20001000)
T685C 000:372.873 - 0.005ms returns 0
T685C 000:372.879 JLINK_WriteReg(R14, 0x20000001)
T685C 000:372.885 - 0.005ms returns 0
T685C 000:372.892 JLINK_WriteReg(R15 (PC), 0x200000BC)
T685C 000:372.898 - 0.005ms returns 0
T685C 000:372.904 JLINK_WriteReg(XPSR, 0x01000000)
T685C 000:372.910 - 0.005ms returns 0
T685C 000:372.917 JLINK_WriteReg(MSP, 0x20001000)
T685C 000:372.923 - 0.005ms returns 0
T685C 000:372.929 JLINK_WriteReg(PSP, 0x20001000)
T685C 000:372.935 - 0.005ms returns 0
T685C 000:372.942 JLINK_WriteReg(CFBP, 0x00000000)
T685C 000:372.947 - 0.005ms returns 0
T685C 000:372.954 JLINK_SetBPEx(Addr = 0x20000000, Type = 0xFFFFFFF2)
T685C 000:372.960 - 0.006ms returns 0x00000003
T685C 000:372.967 JLINK_Go()
T685C 000:372.977   CPU_ReadMem(4 bytes @ 0xE0001000)
T685C 000:374.924 - 1.956ms 
T685C 000:374.944 JLINK_IsHalted()
T685C 000:375.166 - 0.220ms returns FALSE
T685C 000:375.183 JLINK_HasError()
T685C 000:457.823 JLINK_IsHalted()
T685C 000:458.108 - 0.284ms returns FALSE
T685C 000:458.173 JLINK_HasError()
T685C 000:459.826 JLINK_IsHalted()
T685C 000:460.059 - 0.232ms returns FALSE
T685C 000:460.077 JLINK_HasError()
T685C 000:462.056 JLINK_IsHalted()
T685C 000:462.301 - 0.245ms returns FALSE
T685C 000:462.315 JLINK_HasError()
T685C 000:465.497 JLINK_IsHalted()
T685C 000:465.772 - 0.275ms returns FALSE
T685C 000:465.788 JLINK_HasError()
T685C 000:468.787 JLINK_IsHalted()
T685C 000:469.028 - 0.240ms returns FALSE
T685C 000:469.049 JLINK_HasError()
T685C 000:471.334 JLINK_IsHalted()
T685C 000:471.639 - 0.304ms returns FALSE
T685C 000:471.659 JLINK_HasError()
T685C 000:473.638 JLINK_IsHalted()
T685C 000:473.866 - 0.227ms returns FALSE
T685C 000:473.880 JLINK_HasError()
T685C 000:475.862 JLINK_IsHalted()
T685C 000:476.089 - 0.226ms returns FALSE
T685C 000:476.120 JLINK_HasError()
T685C 000:477.881 JLINK_IsHalted()
T685C 000:478.106 - 0.225ms returns FALSE
T685C 000:478.125 JLINK_HasError()
T685C 000:482.023 JLINK_IsHalted()
T685C 000:482.267 - 0.243ms returns FALSE
T685C 000:482.280 JLINK_HasError()
T685C 000:484.029 JLINK_IsHalted()
T685C 000:484.275 - 0.245ms returns FALSE
T685C 000:484.295 JLINK_HasError()
T685C 000:486.254 JLINK_IsHalted()
T685C 000:486.477 - 0.223ms returns FALSE
T685C 000:486.492 JLINK_HasError()
T685C 000:488.274 JLINK_IsHalted()
T685C 000:488.518 - 0.243ms returns FALSE
T685C 000:488.533 JLINK_HasError()
T685C 000:491.288 JLINK_IsHalted()
T685C 000:491.538 - 0.249ms returns FALSE
T685C 000:491.551 JLINK_HasError()
T685C 000:493.295 JLINK_IsHalted()
T685C 000:493.519 - 0.223ms returns FALSE
T685C 000:493.538 JLINK_HasError()
T685C 000:495.849 JLINK_IsHalted()
T685C 000:496.108 - 0.259ms returns FALSE
T685C 000:496.124 JLINK_HasError()
T685C 000:500.235 JLINK_IsHalted()
T685C 000:500.523 - 0.288ms returns FALSE
T685C 000:500.545 JLINK_HasError()
T685C 000:502.293 JLINK_IsHalted()
T685C 000:502.537 - 0.244ms returns FALSE
T685C 000:502.555 JLINK_HasError()
T685C 000:505.928 JLINK_IsHalted()
T685C 000:506.185 - 0.256ms returns FALSE
T685C 000:506.199 JLINK_HasError()
T685C 000:510.964 JLINK_IsHalted()
T685C 000:511.243 - 0.278ms returns FALSE
T685C 000:511.261 JLINK_HasError()
T685C 000:513.114 JLINK_IsHalted()
T685C 000:513.353 - 0.238ms returns FALSE
T685C 000:513.366 JLINK_HasError()
T685C 000:516.231 JLINK_IsHalted()
T685C 000:516.481 - 0.249ms returns FALSE
T685C 000:516.500 JLINK_HasError()
T685C 000:518.316 JLINK_IsHalted()
T685C 000:518.541 - 0.224ms returns FALSE
T685C 000:518.555 JLINK_HasError()
T685C 000:520.401 JLINK_IsHalted()
T685C 000:520.639 - 0.237ms returns FALSE
T685C 000:520.656 JLINK_HasError()
T685C 000:523.797 JLINK_IsHalted()
T685C 000:524.048 - 0.250ms returns FALSE
T685C 000:524.067 JLINK_HasError()
T685C 000:528.855 JLINK_IsHalted()
T685C 000:529.121 - 0.265ms returns FALSE
T685C 000:529.138 JLINK_HasError()
T685C 000:530.892 JLINK_IsHalted()
T685C 000:531.139 - 0.246ms returns FALSE
T685C 000:531.157 JLINK_HasError()
T685C 000:537.455 JLINK_IsHalted()
T685C 000:537.700 - 0.244ms returns FALSE
T685C 000:537.717 JLINK_HasError()
T685C 000:546.278 JLINK_IsHalted()
T685C 000:546.529 - 0.250ms returns FALSE
T685C 000:546.542 JLINK_HasError()
T685C 000:558.880 JLINK_IsHalted()
T685C 000:559.168 - 0.287ms returns FALSE
T685C 000:559.190 JLINK_HasError()
T685C 000:564.902 JLINK_IsHalted()
T685C 000:565.137 - 0.234ms returns FALSE
T685C 000:565.151 JLINK_HasError()
T685C 000:567.913 JLINK_IsHalted()
T685C 000:568.153 - 0.239ms returns FALSE
T685C 000:568.173 JLINK_HasError()
T685C 000:585.067 JLINK_IsHalted()
T685C 000:585.321 - 0.254ms returns FALSE
T685C 000:585.377 JLINK_HasError()
T685C 000:642.970 JLINK_IsHalted()
T685C 000:643.245 - 0.274ms returns FALSE
T685C 000:643.259 JLINK_HasError()
T685C 000:706.962 JLINK_IsHalted()
T685C 000:707.259 - 0.296ms returns FALSE
T685C 000:707.282 JLINK_HasError()
T685C 000:770.216 JLINK_IsHalted()
T685C 000:772.127   CPU_ReadMem(2 bytes @ 0x20000000)
T685C 000:772.362 - 2.146ms returns TRUE
T685C 000:772.373 JLINK_ReadReg(R15 (PC))
T685C 000:772.381 - 0.007ms returns 0x20000000
T685C 000:772.388 JLINK_ClrBPEx(BPHandle = 0x00000003)
T685C 000:772.394 - 0.006ms returns 0x00
T685C 000:772.401 JLINK_ReadReg(R0)
T685C 000:772.406 - 0.005ms returns 0x00000000
T685C 000:773.083 JLINK_HasError()
T685C 000:773.104 JLINK_WriteReg(R0, 0x08004000)
T685C 000:773.114 - 0.009ms returns 0
T685C 000:773.123 JLINK_WriteReg(R1, 0x00004000)
T685C 000:773.130 - 0.007ms returns 0
T685C 000:773.139 JLINK_WriteReg(R2, 0x000000FF)
T685C 000:773.146 - 0.007ms returns 0
T685C 000:773.155 JLINK_WriteReg(R3, 0x00000000)
T685C 000:773.162 - 0.007ms returns 0
T685C 000:773.171 JLINK_WriteReg(R4, 0x00000000)
T685C 000:773.179 - 0.007ms returns 0
T685C 000:773.187 JLINK_WriteReg(R5, 0x00000000)
T685C 000:773.195 - 0.007ms returns 0
T685C 000:773.203 JLINK_WriteReg(R6, 0x00000000)
T685C 000:773.210 - 0.007ms returns 0
T685C 000:773.219 JLINK_WriteReg(R7, 0x00000000)
T685C 000:773.237 - 0.018ms returns 0
T685C 000:773.246 JLINK_WriteReg(R8, 0x00000000)
T685C 000:773.253 - 0.007ms returns 0
T685C 000:773.261 JLINK_WriteReg(R9, 0x2000017C)
T685C 000:773.269 - 0.007ms returns 0
T685C 000:773.277 JLINK_WriteReg(R10, 0x00000000)
T685C 000:773.285 - 0.007ms returns 0
T685C 000:773.293 JLINK_WriteReg(R11, 0x00000000)
T685C 000:773.300 - 0.007ms returns 0
T685C 000:773.309 JLINK_WriteReg(R12, 0x00000000)
T685C 000:773.316 - 0.007ms returns 0
T685C 000:773.325 JLINK_WriteReg(R13 (SP), 0x20001000)
T685C 000:773.332 - 0.007ms returns 0
T685C 000:773.341 JLINK_WriteReg(R14, 0x20000001)
T685C 000:773.348 - 0.007ms returns 0
T685C 000:773.357 JLINK_WriteReg(R15 (PC), 0x20000020)
T685C 000:773.364 - 0.007ms returns 0
T685C 000:773.372 JLINK_WriteReg(XPSR, 0x01000000)
T685C 000:773.380 - 0.007ms returns 0
T685C 000:773.389 JLINK_WriteReg(MSP, 0x20001000)
T685C 000:773.396 - 0.007ms returns 0
T685C 000:773.405 JLINK_WriteReg(PSP, 0x20001000)
T685C 000:773.412 - 0.007ms returns 0
T685C 000:773.420 JLINK_WriteReg(CFBP, 0x00000000)
T685C 000:773.428 - 0.007ms returns 0
T685C 000:773.437 JLINK_SetBPEx(Addr = 0x20000000, Type = 0xFFFFFFF2)
T685C 000:773.445 - 0.008ms returns 0x00000004
T685C 000:773.454 JLINK_Go()
T685C 000:773.470   CPU_ReadMem(4 bytes @ 0xE0001000)
T685C 000:775.485 - 2.030ms 
T685C 000:775.503 JLINK_IsHalted()
T685C 000:777.323   CPU_ReadMem(2 bytes @ 0x20000000)
T685C 000:777.660 - 2.155ms returns TRUE
T685C 000:777.676 JLINK_ReadReg(R15 (PC))
T685C 000:777.683 - 0.007ms returns 0x20000000
T685C 000:777.690 JLINK_ClrBPEx(BPHandle = 0x00000004)
T685C 000:777.696 - 0.006ms returns 0x00
T685C 000:777.702 JLINK_ReadReg(R0)
T685C 000:777.708 - 0.005ms returns 0x00000001
T685C 000:777.715 JLINK_HasError()
T685C 000:777.722 JLINK_WriteReg(R0, 0x08004000)
T685C 000:777.728 - 0.006ms returns 0
T685C 000:777.735 JLINK_WriteReg(R1, 0x00004000)
T685C 000:777.741 - 0.006ms returns 0
T685C 000:777.748 JLINK_WriteReg(R2, 0x000000FF)
T685C 000:777.754 - 0.005ms returns 0
T685C 000:777.760 JLINK_WriteReg(R3, 0x00000000)
T685C 000:777.766 - 0.005ms returns 0
T685C 000:777.774 JLINK_WriteReg(R4, 0x00000000)
T685C 000:777.780 - 0.005ms returns 0
T685C 000:777.786 JLINK_WriteReg(R5, 0x00000000)
T685C 000:777.792 - 0.005ms returns 0
T685C 000:777.798 JLINK_WriteReg(R6, 0x00000000)
T685C 000:777.804 - 0.005ms returns 0
T685C 000:777.810 JLINK_WriteReg(R7, 0x00000000)
T685C 000:777.816 - 0.005ms returns 0
T685C 000:777.822 JLINK_WriteReg(R8, 0x00000000)
T685C 000:777.828 - 0.005ms returns 0
T685C 000:777.835 JLINK_WriteReg(R9, 0x2000017C)
T685C 000:777.840 - 0.005ms returns 0
T685C 000:777.847 JLINK_WriteReg(R10, 0x00000000)
T685C 000:777.852 - 0.005ms returns 0
T685C 000:777.859 JLINK_WriteReg(R11, 0x00000000)
T685C 000:777.864 - 0.005ms returns 0
T685C 000:777.870 JLINK_WriteReg(R12, 0x00000000)
T685C 000:777.876 - 0.005ms returns 0
T685C 000:777.883 JLINK_WriteReg(R13 (SP), 0x20001000)
T685C 000:777.888 - 0.005ms returns 0
T685C 000:777.895 JLINK_WriteReg(R14, 0x20000001)
T685C 000:777.901 - 0.005ms returns 0
T685C 000:777.907 JLINK_WriteReg(R15 (PC), 0x200000BC)
T685C 000:777.913 - 0.005ms returns 0
T685C 000:777.919 JLINK_WriteReg(XPSR, 0x01000000)
T685C 000:777.925 - 0.005ms returns 0
T685C 000:777.931 JLINK_WriteReg(MSP, 0x20001000)
T685C 000:777.937 - 0.005ms returns 0
T685C 000:777.943 JLINK_WriteReg(PSP, 0x20001000)
T685C 000:777.949 - 0.005ms returns 0
T685C 000:777.956 JLINK_WriteReg(CFBP, 0x00000000)
T685C 000:777.961 - 0.005ms returns 0
T685C 000:777.968 JLINK_SetBPEx(Addr = 0x20000000, Type = 0xFFFFFFF2)
T685C 000:777.974 - 0.006ms returns 0x00000005
T685C 000:777.981 JLINK_Go()
T685C 000:777.992   CPU_ReadMem(4 bytes @ 0xE0001000)
T685C 000:780.028 - 2.046ms 
T685C 000:780.046 JLINK_IsHalted()
T685C 000:780.268 - 0.221ms returns FALSE
T685C 000:780.281 JLINK_HasError()
T685C 000:841.878 JLINK_IsHalted()
T685C 000:842.157 - 0.278ms returns FALSE
T685C 000:842.170 JLINK_HasError()
T685C 000:904.058 JLINK_IsHalted()
T685C 000:904.363 - 0.304ms returns FALSE
T685C 000:904.378 JLINK_HasError()
T685C 000:962.574 JLINK_IsHalted()
T685C 000:962.850 - 0.275ms returns FALSE
T685C 000:962.871 JLINK_HasError()
T685C 001:024.888 JLINK_IsHalted()
T685C 001:025.163 - 0.274ms returns FALSE
T685C 001:025.176 JLINK_HasError()
T685C 001:086.131 JLINK_IsHalted()
T685C 001:086.415 - 0.284ms returns FALSE
T685C 001:086.431 JLINK_HasError()
T685C 001:148.491 JLINK_IsHalted()
T685C 001:150.344   CPU_ReadMem(2 bytes @ 0x20000000)
T685C 001:150.637 - 2.146ms returns TRUE
T685C 001:150.650 JLINK_ReadReg(R15 (PC))
T685C 001:150.660 - 0.009ms returns 0x20000000
T685C 001:150.667 JLINK_ClrBPEx(BPHandle = 0x00000005)
T685C 001:150.673 - 0.006ms returns 0x00
T685C 001:150.681 JLINK_ReadReg(R0)
T685C 001:150.687 - 0.006ms returns 0x00000000
T685C 001:151.028 JLINK_HasError()
T685C 001:151.044 JLINK_WriteReg(R0, 0x00000001)
T685C 001:151.051 - 0.007ms returns 0
T685C 001:151.058 JLINK_WriteReg(R1, 0x00004000)
T685C 001:151.064 - 0.006ms returns 0
T685C 001:151.071 JLINK_WriteReg(R2, 0x000000FF)
T685C 001:151.077 - 0.005ms returns 0
T685C 001:151.084 JLINK_WriteReg(R3, 0x00000000)
T685C 001:151.090 - 0.005ms returns 0
T685C 001:151.096 JLINK_WriteReg(R4, 0x00000000)
T685C 001:151.102 - 0.005ms returns 0
T685C 001:151.109 JLINK_WriteReg(R5, 0x00000000)
T685C 001:151.115 - 0.006ms returns 0
T685C 001:151.122 JLINK_WriteReg(R6, 0x00000000)
T685C 001:151.128 - 0.005ms returns 0
T685C 001:151.134 JLINK_WriteReg(R7, 0x00000000)
T685C 001:151.140 - 0.005ms returns 0
T685C 001:151.147 JLINK_WriteReg(R8, 0x00000000)
T685C 001:151.153 - 0.005ms returns 0
T685C 001:151.159 JLINK_WriteReg(R9, 0x2000017C)
T685C 001:151.169 - 0.009ms returns 0
T685C 001:151.176 JLINK_WriteReg(R10, 0x00000000)
T685C 001:151.181 - 0.005ms returns 0
T685C 001:151.188 JLINK_WriteReg(R11, 0x00000000)
T685C 001:151.194 - 0.005ms returns 0
T685C 001:151.201 JLINK_WriteReg(R12, 0x00000000)
T685C 001:151.207 - 0.005ms returns 0
T685C 001:151.213 JLINK_WriteReg(R13 (SP), 0x20001000)
T685C 001:151.219 - 0.006ms returns 0
T685C 001:151.226 JLINK_WriteReg(R14, 0x20000001)
T685C 001:151.232 - 0.005ms returns 0
T685C 001:151.239 JLINK_WriteReg(R15 (PC), 0x20000082)
T685C 001:151.245 - 0.005ms returns 0
T685C 001:151.252 JLINK_WriteReg(XPSR, 0x01000000)
T685C 001:151.257 - 0.006ms returns 0
T685C 001:151.264 JLINK_WriteReg(MSP, 0x20001000)
T685C 001:151.270 - 0.005ms returns 0
T685C 001:151.276 JLINK_WriteReg(PSP, 0x20001000)
T685C 001:151.282 - 0.005ms returns 0
T685C 001:151.289 JLINK_WriteReg(CFBP, 0x00000000)
T685C 001:151.295 - 0.005ms returns 0
T685C 001:151.302 JLINK_SetBPEx(Addr = 0x20000000, Type = 0xFFFFFFF2)
T685C 001:151.309 - 0.006ms returns 0x00000006
T685C 001:151.315 JLINK_Go()
T685C 001:151.328   CPU_ReadMem(4 bytes @ 0xE0001000)
T685C 001:153.329 - 2.013ms 
T685C 001:153.344 JLINK_IsHalted()
T685C 001:155.254   CPU_ReadMem(2 bytes @ 0x20000000)
T685C 001:155.508 - 2.163ms returns TRUE
T685C 001:155.521 JLINK_ReadReg(R15 (PC))
T685C 001:155.528 - 0.007ms returns 0x20000000
T685C 001:155.535 JLINK_ClrBPEx(BPHandle = 0x00000006)
T685C 001:155.541 - 0.006ms returns 0x00
T685C 001:155.548 JLINK_ReadReg(R0)
T685C 001:155.554 - 0.005ms returns 0x00000000
T685C 001:219.754 JLINK_WriteMem(0x20000000, 0x180 Bytes, ...)
T685C 001:219.785   Data:  00 BE 0A E0 0D 78 2D 06 68 40 08 24 40 00 00 D3 ...
T685C 001:219.807   CPU_WriteMem(384 bytes @ 0x20000000)
T685C 001:221.354 - 1.599ms returns 0x180
T685C 001:221.444 JLINK_HasError()
T685C 001:221.458 JLINK_WriteReg(R0, 0x08000000)
T685C 001:221.467 - 0.009ms returns 0
T685C 001:221.475 JLINK_WriteReg(R1, 0x007A1200)
T685C 001:221.483 - 0.007ms returns 0
T685C 001:221.491 JLINK_WriteReg(R2, 0x00000002)
T685C 001:221.498 - 0.006ms returns 0
T685C 001:221.506 JLINK_WriteReg(R3, 0x00000000)
T685C 001:221.513 - 0.006ms returns 0
T685C 001:221.521 JLINK_WriteReg(R4, 0x00000000)
T685C 001:221.528 - 0.007ms returns 0
T685C 001:221.536 JLINK_WriteReg(R5, 0x00000000)
T685C 001:221.552 - 0.015ms returns 0
T685C 001:221.560 JLINK_WriteReg(R6, 0x00000000)
T685C 001:221.566 - 0.006ms returns 0
T685C 001:221.572 JLINK_WriteReg(R7, 0x00000000)
T685C 001:221.578 - 0.005ms returns 0
T685C 001:221.585 JLINK_WriteReg(R8, 0x00000000)
T685C 001:221.590 - 0.005ms returns 0
T685C 001:221.597 JLINK_WriteReg(R9, 0x2000017C)
T685C 001:221.603 - 0.005ms returns 0
T685C 001:221.609 JLINK_WriteReg(R10, 0x00000000)
T685C 001:221.615 - 0.005ms returns 0
T685C 001:221.622 JLINK_WriteReg(R11, 0x00000000)
T685C 001:221.628 - 0.006ms returns 0
T685C 001:221.640 JLINK_WriteReg(R12, 0x00000000)
T685C 001:221.646 - 0.005ms returns 0
T685C 001:221.653 JLINK_WriteReg(R13 (SP), 0x20001000)
T685C 001:221.661 - 0.008ms returns 0
T685C 001:221.673 JLINK_WriteReg(R14, 0x20000001)
T685C 001:221.684 - 0.011ms returns 0
T685C 001:221.691 JLINK_WriteReg(R15 (PC), 0x20000054)
T685C 001:221.698 - 0.006ms returns 0
T685C 001:221.705 JLINK_WriteReg(XPSR, 0x01000000)
T685C 001:221.710 - 0.006ms returns 0
T685C 001:221.717 JLINK_WriteReg(MSP, 0x20001000)
T685C 001:221.723 - 0.005ms returns 0
T685C 001:221.730 JLINK_WriteReg(PSP, 0x20001000)
T685C 001:221.735 - 0.005ms returns 0
T685C 001:221.742 JLINK_WriteReg(CFBP, 0x00000000)
T685C 001:221.748 - 0.005ms returns 0
T685C 001:221.755 JLINK_SetBPEx(Addr = 0x20000000, Type = 0xFFFFFFF2)
T685C 001:221.767   CPU_ReadMem(2 bytes @ 0x20000000)
T685C 001:222.088 - 0.332ms returns 0x00000007
T685C 001:222.105 JLINK_Go()
T685C 001:222.114   CPU_WriteMem(2 bytes @ 0x20000000)
T685C 001:222.349   CPU_ReadMem(4 bytes @ 0xE0001000)
T685C 001:224.332 - 2.226ms 
T685C 001:224.348 JLINK_IsHalted()
T685C 001:226.197   CPU_ReadMem(2 bytes @ 0x20000000)
T685C 001:226.429 - 2.080ms returns TRUE
T685C 001:226.440 JLINK_ReadReg(R15 (PC))
T685C 001:226.447 - 0.006ms returns 0x20000000
T685C 001:226.454 JLINK_ClrBPEx(BPHandle = 0x00000007)
T685C 001:226.461 - 0.006ms returns 0x00
T685C 001:226.468 JLINK_ReadReg(R0)
T685C 001:226.474 - 0.005ms returns 0x00000000
T685C 001:226.805 JLINK_WriteMem(0x20000180, 0x280 Bytes, ...)
T685C 001:226.818   Data:  60 0F 00 20 29 02 00 08 B5 44 00 08 FF 3D 00 08 ...
T685C 001:226.833   CPU_WriteMem(640 bytes @ 0x20000180)
T685C 001:229.124 - 2.319ms returns 0x280
T685C 001:229.144 JLINK_WriteMem(0x20000400, 0x180 Bytes, ...)
T685C 001:229.152   Data:  03 FA 05 F4 24 FA 05 F6 5E 40 12 BF 16 43 B2 FA ...
T685C 001:229.169   CPU_WriteMem(384 bytes @ 0x20000400)
T685C 001:230.722 - 1.577ms returns 0x180
T685C 001:230.740 JLINK_HasError()
T685C 001:230.750 JLINK_WriteReg(R0, 0x08000000)
T685C 001:230.758 - 0.008ms returns 0
T685C 001:230.766 JLINK_WriteReg(R1, 0x00000400)
T685C 001:230.773 - 0.007ms returns 0
T685C 001:230.788 JLINK_WriteReg(R2, 0x20000180)
T685C 001:230.800 - 0.011ms returns 0
T685C 001:230.809 JLINK_WriteReg(R3, 0x00000000)
T685C 001:230.816 - 0.007ms returns 0
T685C 001:230.824 JLINK_WriteReg(R4, 0x00000000)
T685C 001:230.831 - 0.007ms returns 0
T685C 001:230.839 JLINK_WriteReg(R5, 0x00000000)
T685C 001:230.846 - 0.006ms returns 0
T685C 001:230.854 JLINK_WriteReg(R6, 0x00000000)
T685C 001:230.861 - 0.006ms returns 0
T685C 001:230.869 JLINK_WriteReg(R7, 0x00000000)
T685C 001:230.876 - 0.006ms returns 0
T685C 001:230.884 JLINK_WriteReg(R8, 0x00000000)
T685C 001:230.890 - 0.006ms returns 0
T685C 001:230.898 JLINK_WriteReg(R9, 0x2000017C)
T685C 001:230.905 - 0.006ms returns 0
T685C 001:230.913 JLINK_WriteReg(R10, 0x00000000)
T685C 001:230.920 - 0.007ms returns 0
T685C 001:230.928 JLINK_WriteReg(R11, 0x00000000)
T685C 001:230.935 - 0.006ms returns 0
T685C 001:230.943 JLINK_WriteReg(R12, 0x00000000)
T685C 001:230.950 - 0.007ms returns 0
T685C 001:230.958 JLINK_WriteReg(R13 (SP), 0x20001000)
T685C 001:230.966 - 0.007ms returns 0
T685C 001:230.974 JLINK_WriteReg(R14, 0x20000001)
T685C 001:230.981 - 0.007ms returns 0
T685C 001:230.989 JLINK_WriteReg(R15 (PC), 0x20000108)
T685C 001:230.996 - 0.007ms returns 0
T685C 001:231.004 JLINK_WriteReg(XPSR, 0x01000000)
T685C 001:231.016 - 0.011ms returns 0
T685C 001:231.026 JLINK_WriteReg(MSP, 0x20001000)
T685C 001:231.033 - 0.007ms returns 0
T685C 001:231.041 JLINK_WriteReg(PSP, 0x20001000)
T685C 001:231.048 - 0.006ms returns 0
T685C 001:231.056 JLINK_WriteReg(CFBP, 0x00000000)
T685C 001:231.063 - 0.007ms returns 0
T685C 001:231.072 JLINK_SetBPEx(Addr = 0x20000000, Type = 0xFFFFFFF2)
T685C 001:231.079 - 0.007ms returns 0x00000008
T685C 001:231.087 JLINK_Go()
T685C 001:231.100   CPU_ReadMem(4 bytes @ 0xE0001000)
T685C 001:233.129 - 2.040ms 
T685C 001:233.151 JLINK_IsHalted()
T685C 001:233.379 - 0.227ms returns FALSE
T685C 001:233.399 JLINK_HasError()
T685C 001:249.815 JLINK_IsHalted()
T685C 001:251.725   CPU_ReadMem(2 bytes @ 0x20000000)
T685C 001:251.963 - 2.148ms returns TRUE
T685C 001:251.985 JLINK_ReadReg(R15 (PC))
T685C 001:251.995 - 0.009ms returns 0x20000000
T685C 001:252.004 JLINK_ClrBPEx(BPHandle = 0x00000008)
T685C 001:252.012 - 0.008ms returns 0x00
T685C 001:252.022 JLINK_ReadReg(R0)
T685C 001:252.030 - 0.007ms returns 0x00000000
T685C 001:252.704 JLINK_WriteMem(0x20000180, 0x280 Bytes, ...)
T685C 001:252.717   Data:  20 F0 07 00 85 46 18 B0 20 B5 FF F7 1B FF BD E8 ...
T685C 001:252.731   CPU_WriteMem(640 bytes @ 0x20000180)
T685C 001:255.025 - 2.321ms returns 0x280
T685C 001:255.046 JLINK_WriteMem(0x20000400, 0x180 Bytes, ...)
T685C 001:255.054   Data:  03 F0 26 FB 00 BF 0D 48 00 68 00 6A 41 F2 11 11 ...
T685C 001:255.072   CPU_WriteMem(384 bytes @ 0x20000400)
T685C 001:256.643 - 1.597ms returns 0x180
T685C 001:256.666 JLINK_HasError()
T685C 001:256.676 JLINK_WriteReg(R0, 0x08000400)
T685C 001:256.685 - 0.008ms returns 0
T685C 001:256.694 JLINK_WriteReg(R1, 0x00000400)
T685C 001:256.702 - 0.007ms returns 0
T685C 001:256.711 JLINK_WriteReg(R2, 0x20000180)
T685C 001:256.718 - 0.007ms returns 0
T685C 001:256.726 JLINK_WriteReg(R3, 0x00000000)
T685C 001:256.734 - 0.007ms returns 0
T685C 001:256.742 JLINK_WriteReg(R4, 0x00000000)
T685C 001:256.750 - 0.007ms returns 0
T685C 001:256.758 JLINK_WriteReg(R5, 0x00000000)
T685C 001:256.766 - 0.008ms returns 0
T685C 001:256.775 JLINK_WriteReg(R6, 0x00000000)
T685C 001:256.782 - 0.007ms returns 0
T685C 001:256.790 JLINK_WriteReg(R7, 0x00000000)
T685C 001:256.798 - 0.007ms returns 0
T685C 001:256.806 JLINK_WriteReg(R8, 0x00000000)
T685C 001:256.813 - 0.007ms returns 0
T685C 001:256.822 JLINK_WriteReg(R9, 0x2000017C)
T685C 001:256.829 - 0.007ms returns 0
T685C 001:256.838 JLINK_WriteReg(R10, 0x00000000)
T685C 001:256.845 - 0.007ms returns 0
T685C 001:256.854 JLINK_WriteReg(R11, 0x00000000)
T685C 001:256.861 - 0.007ms returns 0
T685C 001:256.869 JLINK_WriteReg(R12, 0x00000000)
T685C 001:256.877 - 0.007ms returns 0
T685C 001:256.885 JLINK_WriteReg(R13 (SP), 0x20001000)
T685C 001:256.893 - 0.008ms returns 0
T685C 001:256.902 JLINK_WriteReg(R14, 0x20000001)
T685C 001:256.909 - 0.007ms returns 0
T685C 001:256.918 JLINK_WriteReg(R15 (PC), 0x20000108)
T685C 001:256.925 - 0.007ms returns 0
T685C 001:256.933 JLINK_WriteReg(XPSR, 0x01000000)
T685C 001:256.941 - 0.007ms returns 0
T685C 001:256.949 JLINK_WriteReg(MSP, 0x20001000)
T685C 001:256.957 - 0.007ms returns 0
T685C 001:256.965 JLINK_WriteReg(PSP, 0x20001000)
T685C 001:256.972 - 0.007ms returns 0
T685C 001:256.981 JLINK_WriteReg(CFBP, 0x00000000)
T685C 001:256.988 - 0.007ms returns 0
T685C 001:256.997 JLINK_SetBPEx(Addr = 0x20000000, Type = 0xFFFFFFF2)
T685C 001:257.006 - 0.008ms returns 0x00000009
T685C 001:257.014 JLINK_Go()
T685C 001:257.030   CPU_ReadMem(4 bytes @ 0xE0001000)
T685C 001:259.017 - 2.002ms 
T685C 001:259.038 JLINK_IsHalted()
T685C 001:259.281 - 0.242ms returns FALSE
T685C 001:259.294 JLINK_HasError()
T685C 001:261.798 JLINK_IsHalted()
T685C 001:262.050 - 0.252ms returns FALSE
T685C 001:262.068 JLINK_HasError()
T685C 001:264.047 JLINK_IsHalted()
T685C 001:265.864   CPU_ReadMem(2 bytes @ 0x20000000)
T685C 001:266.098 - 2.051ms returns TRUE
T685C 001:266.117 JLINK_ReadReg(R15 (PC))
T685C 001:266.125 - 0.008ms returns 0x20000000
T685C 001:266.141 JLINK_ClrBPEx(BPHandle = 0x00000009)
T685C 001:266.164 - 0.023ms returns 0x00
T685C 001:266.172 JLINK_ReadReg(R0)
T685C 001:266.179 - 0.006ms returns 0x00000000
T685C 001:267.222 JLINK_WriteMem(0x20000180, 0x280 Bytes, ...)
T685C 001:267.237   Data:  00 BF 00 BF 01 20 08 E0 CB 6A 03 F0 80 73 B3 F1 ...
T685C 001:267.250   CPU_WriteMem(640 bytes @ 0x20000180)
T685C 001:269.658 - 2.435ms returns 0x280
T685C 001:269.676 JLINK_WriteMem(0x20000400, 0x180 Bytes, ...)
T685C 001:269.685   Data:  42 64 64 23 83 64 00 23 C3 64 4F F4 00 43 03 65 ...
T685C 001:269.702   CPU_WriteMem(384 bytes @ 0x20000400)
T685C 001:271.222 - 1.545ms returns 0x180
T685C 001:271.242 JLINK_HasError()
T685C 001:271.253 JLINK_WriteReg(R0, 0x08000800)
T685C 001:271.261 - 0.008ms returns 0
T685C 001:271.270 JLINK_WriteReg(R1, 0x00000400)
T685C 001:271.277 - 0.007ms returns 0
T685C 001:271.285 JLINK_WriteReg(R2, 0x20000180)
T685C 001:271.293 - 0.007ms returns 0
T685C 001:271.301 JLINK_WriteReg(R3, 0x00000000)
T685C 001:271.308 - 0.007ms returns 0
T685C 001:271.317 JLINK_WriteReg(R4, 0x00000000)
T685C 001:271.324 - 0.007ms returns 0
T685C 001:271.332 JLINK_WriteReg(R5, 0x00000000)
T685C 001:271.340 - 0.008ms returns 0
T685C 001:271.349 JLINK_WriteReg(R6, 0x00000000)
T685C 001:271.356 - 0.007ms returns 0
T685C 001:271.364 JLINK_WriteReg(R7, 0x00000000)
T685C 001:271.371 - 0.007ms returns 0
T685C 001:271.380 JLINK_WriteReg(R8, 0x00000000)
T685C 001:271.387 - 0.007ms returns 0
T685C 001:271.396 JLINK_WriteReg(R9, 0x2000017C)
T685C 001:271.403 - 0.007ms returns 0
T685C 001:271.412 JLINK_WriteReg(R10, 0x00000000)
T685C 001:271.419 - 0.007ms returns 0
T685C 001:271.427 JLINK_WriteReg(R11, 0x00000000)
T685C 001:271.435 - 0.007ms returns 0
T685C 001:271.443 JLINK_WriteReg(R12, 0x00000000)
T685C 001:271.450 - 0.007ms returns 0
T685C 001:271.459 JLINK_WriteReg(R13 (SP), 0x20001000)
T685C 001:271.466 - 0.007ms returns 0
T685C 001:271.476 JLINK_WriteReg(R14, 0x20000001)
T685C 001:271.485 - 0.009ms returns 0
T685C 001:271.494 JLINK_WriteReg(R15 (PC), 0x20000108)
T685C 001:271.501 - 0.007ms returns 0
T685C 001:271.510 JLINK_WriteReg(XPSR, 0x01000000)
T685C 001:271.517 - 0.007ms returns 0
T685C 001:271.526 JLINK_WriteReg(MSP, 0x20001000)
T685C 001:271.533 - 0.007ms returns 0
T685C 001:271.542 JLINK_WriteReg(PSP, 0x20001000)
T685C 001:271.549 - 0.007ms returns 0
T685C 001:271.558 JLINK_WriteReg(CFBP, 0x00000000)
T685C 001:271.565 - 0.007ms returns 0
T685C 001:271.574 JLINK_SetBPEx(Addr = 0x20000000, Type = 0xFFFFFFF2)
T685C 001:271.583 - 0.008ms returns 0x0000000A
T685C 001:271.591 JLINK_Go()
T685C 001:271.606   CPU_ReadMem(4 bytes @ 0xE0001000)
T685C 001:273.639 - 2.047ms 
T685C 001:273.706 JLINK_IsHalted()
T685C 001:273.944 - 0.237ms returns FALSE
T685C 001:273.958 JLINK_HasError()
T685C 001:275.980 JLINK_IsHalted()
T685C 001:276.229 - 0.248ms returns FALSE
T685C 001:276.243 JLINK_HasError()
T685C 001:278.301 JLINK_IsHalted()
T685C 001:280.206   CPU_ReadMem(2 bytes @ 0x20000000)
T685C 001:280.452 - 2.150ms returns TRUE
T685C 001:280.474 JLINK_ReadReg(R15 (PC))
T685C 001:280.483 - 0.009ms returns 0x20000000
T685C 001:280.493 JLINK_ClrBPEx(BPHandle = 0x0000000A)
T685C 001:280.502 - 0.008ms returns 0x00
T685C 001:280.511 JLINK_ReadReg(R0)
T685C 001:280.518 - 0.007ms returns 0x00000000
T685C 001:281.245 JLINK_WriteMem(0x20000180, 0x280 Bytes, ...)
T685C 001:281.267   Data:  00 BF D4 F8 9C 00 D4 F8 A0 10 E7 6A D4 F8 30 C0 ...
T685C 001:281.285   CPU_WriteMem(640 bytes @ 0x20000180)
T685C 001:283.644 - 2.398ms returns 0x280
T685C 001:283.663 JLINK_WriteMem(0x20000400, 0x180 Bytes, ...)
T685C 001:283.671   Data:  1B 4B 4B EA 0E 4C 84 61 07 62 C4 61 41 62 DD F8 ...
T685C 001:283.686   CPU_WriteMem(384 bytes @ 0x20000400)
T685C 001:285.225 - 1.561ms returns 0x180
T685C 001:285.243 JLINK_HasError()
T685C 001:285.252 JLINK_WriteReg(R0, 0x08000C00)
T685C 001:285.259 - 0.007ms returns 0
T685C 001:285.267 JLINK_WriteReg(R1, 0x00000400)
T685C 001:285.276 - 0.009ms returns 0
T685C 001:285.284 JLINK_WriteReg(R2, 0x20000180)
T685C 001:285.298 - 0.014ms returns 0
T685C 001:285.306 JLINK_WriteReg(R3, 0x00000000)
T685C 001:285.313 - 0.006ms returns 0
T685C 001:285.320 JLINK_WriteReg(R4, 0x00000000)
T685C 001:285.327 - 0.006ms returns 0
T685C 001:285.334 JLINK_WriteReg(R5, 0x00000000)
T685C 001:285.341 - 0.006ms returns 0
T685C 001:285.348 JLINK_WriteReg(R6, 0x00000000)
T685C 001:285.355 - 0.006ms returns 0
T685C 001:285.362 JLINK_WriteReg(R7, 0x00000000)
T685C 001:285.368 - 0.006ms returns 0
T685C 001:285.376 JLINK_WriteReg(R8, 0x00000000)
T685C 001:285.382 - 0.006ms returns 0
T685C 001:285.390 JLINK_WriteReg(R9, 0x2000017C)
T685C 001:285.396 - 0.006ms returns 0
T685C 001:285.404 JLINK_WriteReg(R10, 0x00000000)
T685C 001:285.410 - 0.006ms returns 0
T685C 001:285.418 JLINK_WriteReg(R11, 0x00000000)
T685C 001:285.424 - 0.006ms returns 0
T685C 001:285.431 JLINK_WriteReg(R12, 0x00000000)
T685C 001:285.438 - 0.006ms returns 0
T685C 001:285.445 JLINK_WriteReg(R13 (SP), 0x20001000)
T685C 001:285.452 - 0.006ms returns 0
T685C 001:285.460 JLINK_WriteReg(R14, 0x20000001)
T685C 001:285.466 - 0.006ms returns 0
T685C 001:285.473 JLINK_WriteReg(R15 (PC), 0x20000108)
T685C 001:285.480 - 0.006ms returns 0
T685C 001:285.487 JLINK_WriteReg(XPSR, 0x01000000)
T685C 001:285.494 - 0.006ms returns 0
T685C 001:285.501 JLINK_WriteReg(MSP, 0x20001000)
T685C 001:285.508 - 0.006ms returns 0
T685C 001:285.515 JLINK_WriteReg(PSP, 0x20001000)
T685C 001:285.522 - 0.006ms returns 0
T685C 001:285.529 JLINK_WriteReg(CFBP, 0x00000000)
T685C 001:285.536 - 0.006ms returns 0
T685C 001:285.544 JLINK_SetBPEx(Addr = 0x20000000, Type = 0xFFFFFFF2)
T685C 001:285.552 - 0.007ms returns 0x0000000B
T685C 001:285.561 JLINK_Go()
T685C 001:285.576   CPU_ReadMem(4 bytes @ 0xE0001000)
T685C 001:287.638 - 2.076ms 
T685C 001:287.656 JLINK_IsHalted()
T685C 001:287.882 - 0.225ms returns FALSE
T685C 001:287.903 JLINK_HasError()
T685C 001:291.074 JLINK_IsHalted()
T685C 001:291.346 - 0.271ms returns FALSE
T685C 001:291.360 JLINK_HasError()
T685C 001:293.342 JLINK_IsHalted()
T685C 001:295.191   CPU_ReadMem(2 bytes @ 0x20000000)
T685C 001:295.442 - 2.099ms returns TRUE
T685C 001:295.474 JLINK_ReadReg(R15 (PC))
T685C 001:295.484 - 0.009ms returns 0x20000000
T685C 001:295.493 JLINK_ClrBPEx(BPHandle = 0x0000000B)
T685C 001:295.501 - 0.007ms returns 0x00
T685C 001:295.510 JLINK_ReadReg(R0)
T685C 001:295.518 - 0.007ms returns 0x00000000
T685C 001:296.228 JLINK_WriteMem(0x20000180, 0x280 Bytes, ...)
T685C 001:296.245   Data:  42 EA 11 46 02 E0 00 25 00 26 00 BF 00 BF 05 EB ...
T685C 001:296.285   CPU_WriteMem(640 bytes @ 0x20000180)
T685C 001:298.640 - 2.412ms returns 0x280
T685C 001:298.659 JLINK_WriteMem(0x20000400, 0x180 Bytes, ...)
T685C 001:298.667   Data:  02 04 42 EA 11 46 1D E0 0C 98 80 FB 07 10 02 04 ...
T685C 001:298.681   CPU_WriteMem(384 bytes @ 0x20000400)
T685C 001:300.189 - 1.529ms returns 0x180
T685C 001:300.255 JLINK_HasError()
T685C 001:300.267 JLINK_WriteReg(R0, 0x08001000)
T685C 001:300.275 - 0.008ms returns 0
T685C 001:300.283 JLINK_WriteReg(R1, 0x00000400)
T685C 001:300.290 - 0.006ms returns 0
T685C 001:300.297 JLINK_WriteReg(R2, 0x20000180)
T685C 001:300.307 - 0.009ms returns 0
T685C 001:300.315 JLINK_WriteReg(R3, 0x00000000)
T685C 001:300.321 - 0.006ms returns 0
T685C 001:300.329 JLINK_WriteReg(R4, 0x00000000)
T685C 001:300.336 - 0.007ms returns 0
T685C 001:300.344 JLINK_WriteReg(R5, 0x00000000)
T685C 001:300.350 - 0.006ms returns 0
T685C 001:300.357 JLINK_WriteReg(R6, 0x00000000)
T685C 001:300.364 - 0.006ms returns 0
T685C 001:300.371 JLINK_WriteReg(R7, 0x00000000)
T685C 001:300.377 - 0.006ms returns 0
T685C 001:300.385 JLINK_WriteReg(R8, 0x00000000)
T685C 001:300.391 - 0.006ms returns 0
T685C 001:300.399 JLINK_WriteReg(R9, 0x2000017C)
T685C 001:300.405 - 0.006ms returns 0
T685C 001:300.413 JLINK_WriteReg(R10, 0x00000000)
T685C 001:300.419 - 0.006ms returns 0
T685C 001:300.426 JLINK_WriteReg(R11, 0x00000000)
T685C 001:300.433 - 0.006ms returns 0
T685C 001:300.440 JLINK_WriteReg(R12, 0x00000000)
T685C 001:300.456 - 0.015ms returns 0
T685C 001:300.464 JLINK_WriteReg(R13 (SP), 0x20001000)
T685C 001:300.471 - 0.007ms returns 0
T685C 001:300.478 JLINK_WriteReg(R14, 0x20000001)
T685C 001:300.485 - 0.006ms returns 0
T685C 001:300.492 JLINK_WriteReg(R15 (PC), 0x20000108)
T685C 001:300.499 - 0.006ms returns 0
T685C 001:300.506 JLINK_WriteReg(XPSR, 0x01000000)
T685C 001:300.513 - 0.006ms returns 0
T685C 001:300.521 JLINK_WriteReg(MSP, 0x20001000)
T685C 001:300.527 - 0.006ms returns 0
T685C 001:300.534 JLINK_WriteReg(PSP, 0x20001000)
T685C 001:300.541 - 0.006ms returns 0
T685C 001:300.548 JLINK_WriteReg(CFBP, 0x00000000)
T685C 001:300.554 - 0.006ms returns 0
T685C 001:300.563 JLINK_SetBPEx(Addr = 0x20000000, Type = 0xFFFFFFF2)
T685C 001:300.570 - 0.007ms returns 0x0000000C
T685C 001:300.578 JLINK_Go()
T685C 001:300.592   CPU_ReadMem(4 bytes @ 0xE0001000)
T685C 001:302.640 - 2.061ms 
T685C 001:302.660 JLINK_IsHalted()
T685C 001:302.880 - 0.219ms returns FALSE
T685C 001:302.896 JLINK_HasError()
T685C 001:308.849 JLINK_IsHalted()
T685C 001:310.734   CPU_ReadMem(2 bytes @ 0x20000000)
T685C 001:311.019 - 2.169ms returns TRUE
T685C 001:311.036 JLINK_ReadReg(R15 (PC))
T685C 001:311.045 - 0.009ms returns 0x20000000
T685C 001:311.053 JLINK_ClrBPEx(BPHandle = 0x0000000C)
T685C 001:311.060 - 0.007ms returns 0x00
T685C 001:311.068 JLINK_ReadReg(R0)
T685C 001:311.075 - 0.006ms returns 0x00000000
T685C 001:314.076 JLINK_WriteMem(0x20000180, 0x280 Bytes, ...)
T685C 001:314.094   Data:  03 98 60 61 04 98 A0 61 04 E0 00 20 20 61 60 61 ...
T685C 001:314.110   CPU_WriteMem(640 bytes @ 0x20000180)
T685C 001:316.415 - 2.338ms returns 0x280
T685C 001:316.431 JLINK_WriteMem(0x20000400, 0x180 Bytes, ...)
T685C 001:316.438   Data:  5A 48 08 38 C0 F8 B4 10 42 F2 D0 01 C0 F8 B8 10 ...
T685C 001:316.449   CPU_WriteMem(384 bytes @ 0x20000400)
